  can0  7DF   [8]  02 01 00 00 00 00 00 00
  can0  7E8   [8]  06 41 00 BE 1F A8 13 00
  can0  7EA   [8]  06 41 00 98 1A 80 13 00
  can0  7EE   [8]  06 41 00 98 1A 80 13 00
  can0  7DF   [8]  02 01 00 00 00 00 00 00
  can0  7E8   [8]  06 41 00 BE 1F A8 13 00
  can0  7EA   [8]  06 41 00 98 1A 80 13 00
  can0  7EE   [8]  06 41 00 98 1A 80 13 00
  can0  7DF   [8]  02 01 00 00 00 00 00 00
  can0  7E8   [8]  06 41 00 BE 1F A8 13 00
  can0  7EA   [8]  06 41 00 98 1A 80 13 00
  can0  7EE   [8]  06 41 00 98 1A 80 13 00
  can0  7DF   [8]  02 01 20 00 00 00 00 00
  can0  7E8   [8]  06 41 20 90 05 B0 15 00
  can0  7EA   [8]  06 41 20 80 01 A0 01 00
  can0  7EE   [8]  06 41 20 80 01 80 01 00
  can0  7DF   [8]  02 01 40 00 00 00 00 00
  can0  7E8   [8]  06 41 40 7A 1C 8C 01 00
  can0  7EA   [8]  06 41 40 C4 CC 00 21 00
  can0  7EE   [8]  06 41 40 C4 0C 00 01 00
  can0  7DF   [8]  02 01 60 00 00 00 00 00
  can0  7E8   [8]  06 41 60 00 80 00 01 00
  can0  7EA   [8]  06 41 60 08 00 00 01 00
  can0  7EE   [8]  06 41 60 08 00 00 01 00
  can0  7DF   [8]  02 01 80 00 00 00 00 00
  can0  7E8   [8]  06 41 80 02 00 00 00 00
  can0  7EA   [8]  06 41 80 02 00 00 40 00
  can0  7EE   [8]  06 41 80 00 00 00 40 00
  can0  7DF   [8]  02 01 01 00 00 00 00 00
  can0  7E8   [8]  06 41 01 00 07 A1 00 00
  can0  7EA   [8]  06 41 01 00 04 00 00 00
  can0  7EE   [8]  06 41 01 00 04 00 00 00
  can0  7DF   [8]  02 06 00 00 00 00 00 00
  can0  7E8   [8]  06 46 00 C0 00 00 01 00
  can0  7DF   [8]  02 06 20 00 00 00 00 00
  can0  7E8   [8]  06 46 20 80 00 88 01 00
  can0  7DF   [8]  02 06 40 00 00 00 00 00
  can0  7E8   [8]  06 46 40 00 00 00 01 00
  can0  7DF   [8]  02 06 60 00 00 00 00 00
  can0  7E8   [8]  06 46 60 00 00 00 01 00
  can0  7DF   [8]  02 06 80 00 00 00 00 00
  can0  7E8   [8]  06 46 80 00 00 00 01 00
  can0  7DF   [8]  02 06 A0 00 00 00 00 00
  can0  7E8   [8]  06 46 A0 F8 00 00 00 00
  can0  7DF   [8]  02 08 00 00 00 00 00 00
  can0  7DF   [8]  02 09 00 00 00 00 00 00
  can0  7EE   [8]  06 49 00 14 40 00 00 00
  can0  7E8   [8]  06 49 00 55 40 00 00 00
  can0  7EA   [8]  06 49 00 15 40 00 00 00
  can0  7DF   [8]  02 01 1C 00 00 00 00 00
  can0  7E8   [8]  03 41 1C 06 00 00 00 00
  can0  7EA   [8]  03 41 1C 06 00 00 00 00
  can0  7EE   [8]  03 41 1C 0D 00 00 00 00
  can0  7DF   [8]  02 01 13 00 00 00 00 00
  can0  7E8   [8]  03 41 13 03 00 00 00 00
  can0  7DF   [8]  02 09 0A 00 00 00 00 00
  can0  7E8   [8]  10 17 49 0A 01 45 43 4D
  can0  7E0   [8]  30 00 00 00 00 00 00 00
  can0  7EA   [8]  10 17 49 0A 01 48 50 43
  can0  7EE   [8]  10 17 49 0A 01 44 4D 43
  can0  7E6   [8]  30 00 00 00 00 00 00 00
  can0  7E8   [8]  21 00 2D 45 6E 67 69 6E
  can0  7EA   [8]  21 4D 2D 48 79 62 72 69
  can0  7E8   [8]  22 65 43 6F 6E 74 72 6F
  can0  7E8   [8]  23 6C 00 00 00 00 00 00
  can0  7EA   [8]  23 00 00 00 00 00 00 00
  can0  7EE   [8]  22 4D 6F 74 6F 72 43 74
  can0  7EE   [8]  23 72 6C 00 00 00 00 00
  can0  7DF   [8]  02 01 00 00 00 00 00 00
  can0  7EA   [8]  06 41 00 98 1A 80 13 00
  can0  7EE   [8]  06 41 00 98 1A 80 13 00
  can0  7E8   [8]  06 41 00 BE 1F A8 13 00
  can0  7DF   [8]  02 01 20 00 00 00 00 00
  can0  7EE   [8]  06 41 20 80 01 80 01 00
  can0  7E8   [8]  06 41 20 90 05 B0 15 00
  can0  7EA   [8]  06 41 20 80 01 A0 01 00
  can0  7DF   [8]  02 01 40 00 00 00 00 00
  can0  7DF   [8]  02 01 60 00 00 00 00 00
  can0  7E8   [8]  06 41 60 00 80 00 01 00
  can0  7EA   [8]  06 41 60 08 00 00 01 00
  can0  7EE   [8]  06 41 60 08 00 00 01 00
  can0  7DF   [8]  02 01 80 00 00 00 00 00
  can0  7E8   [8]  06 41 80 02 00 00 00 00
  can0  7EA   [8]  06 41 80 02 00 00 40 00
  can0  7EE   [8]  06 41 80 00 00 00 40 00
  can0  7DF   [8]  02 01 01 00 00 00 00 00
  can0  7E8   [8]  06 41 01 00 07 A1 00 00
  can0  7DF   [8]  02 06 00 00 00 00 00 00
  can0  7E8   [8]  06 46 00 C0 00 00 01 00
  can0  7DF   [8]  02 08 00 00 00 00 00 00
  can0  7DF   [8]  02 09 00 00 00 00 00 00
  can0  7E8   [8]  06 49 00 55 40 00 00 00
  can0  7EA   [8]  06 49 00 15 40 00 00 00
  can0  7DF   [8]  02 01 1C 00 00 00 00 00
  can0  7E8   [8]  03 41 1C 06 00 00 00 00
  can0  7EA   [8]  03 41 1C 06 00 00 00 00
  can0  7EE   [8]  03 41 1C 0D 00 00 00 00
  can0  7DF   [8]  02 09 0A 00 00 00 00 00
  can0  7E8   [8]  10 17 49 0A 01 45 43 4D
  can0  7E0   [8]  30 00 00 00 00 00 00 00
  can0  7EA   [8]  10 17 49 0A 01 48 50 43
  can0  7E6   [8]  30 00 00 00 00 00 00 00
  can0  7EA   [8]  21 4D 2D 48 79 62 72 69
  can0  7EE   [8]  21 4D 2D 44 72 69 76 65
  can0  7EA   [8]  22 64 50 74 43 74 72 6C
  can0  7E8   [8]  23 6C 00 00 00 00 00 00
  can0  7EE   [8]  23 72 6C 00 00 00 00 00
  can0  7DF   [8]  02 01 00 00 00 00 00 00
  can0  7E8   [8]  06 41 00 BE 1F A8 13 00
  can0  7EA   [8]  06 41 00 98 1A 80 13 00
  can0  7EE   [8]  06 41 00 98 1A 80 13 00
  can0  7DF   [8]  02 01 20 00 00 00 00 00
  can0  7EE   [8]  06 41 20 80 01 80 01 00
  can0  7E8   [8]  06 41 20 90 05 B0 15 00
  can0  7EA   [8]  06 41 20 80 01 A0 01 00
  can0  7DF   [8]  02 01 40 00 00 00 00 00
  can0  7E8   [8]  06 41 40 7A 1C 8C 01 00
  can0  7EA   [8]  06 41 40 C4 CC 00 21 00
  can0  7EE   [8]  06 41 40 C4 0C 00 01 00
  can0  7DF   [8]  02 01 60 00 00 00 00 00
  can0  7E8   [8]  06 41 60 00 80 00 01 00
  can0  7EA   [8]  06 41 60 08 00 00 01 00
  can0  7EE   [8]  06 41 60 08 00 00 01 00
  can0  7DF   [8]  02 01 80 00 00 00 00 00
  can0  7EE   [8]  06 41 80 00 00 00 40 00
  can0  7E8   [8]  06 41 80 02 00 00 00 00
  can0  7EA   [8]  06 41 80 02 00 00 40 00
  can0  7DF   [8]  02 01 01 00 00 00 00 00
  can0  7E8   [8]  06 41 01 00 07 A1 00 00
  can0  7EA   [8]  06 41 01 00 04 00 00 00
  can0  7EE   [8]  06 41 01 00 04 00 00 00
  can0  7DF   [8]  02 06 00 00 00 00 00 00
  can0  7E8   [8]  06 46 00 C0 00 00 01 00
  can0  7DF   [8]  02 08 00 00 00 00 00 00
  can0  7DF   [8]  02 09 00 00 00 00 00 00
  can0  7E8   [8]  06 49 00 55 40 00 00 00
  can0  7EA   [8]  06 49 00 15 40 00 00 00
  can0  7DF   [8]  02 01 1C 00 00 00 00 00
  can0  7E8   [8]  03 41 1C 06 00 00 00 00
  can0  7EA   [8]  03 41 1C 06 00 00 00 00
  can0  7EE   [8]  03 41 1C 0D 00 00 00 00
  can0  7DF   [8]  02 09 0A 00 00 00 00 00
  can0  7EE   [8]  10 17 49 0A 01 44 4D 43
  can0  7E0   [8]  30 00 00 00 00 00 00 00
  can0  7EE   [8]  21 4D 2D 44 72 69 76 65
  can0  7E8   [8]  21 00 2D 45 6E 67 69 6E
  can0  7E8   [8]  22 65 43 6F 6E 74 72 6F
  can0  7EA   [8]  22 64 50 74 43 74 72 6C
  can0  7E8   [8]  23 6C 00 00 00 00 00 00
  can0  7EE   [8]  23 72 6C 00 00 00 00 00
  can0  7DF   [8]  02 01 01 00 00 00 00 00
  can0  7E8   [8]  06 41 01 00 07 A1 00 00
  can0  7EA   [8]  06 41 01 00 04 00 00 00
  can0  7DF   [8]  02 09 02 00 00 00 00 00
  can0  7E8   [8]  10 14 49 02 01 4E 4D 54
  can0  7E0   [8]  30 00 00 00 00 00 00 00
  can0  7E8   [8]  21 4B 5A 33 42 58 32 30
  can0  7E8   [8]  22 52 33 32 32 35 35 30
  can0  7DF   [8]  02 09 04 00 00 00 00 00
  can0  7E8   [8]  10 23 49 04 02 38 39 36
  can0  7EA   [8]  10 23 49 04 02 38 39 39
  can0  7E0   [8]  30 00 00 00 00 00 00 00
  can0  7E8   [8]  23 39 36 36 41 34 37 30
  can0  7EA   [8]  23 39 39 38 35 46 34 30
  can0  7EE   [8]  22 30 32 00 00 00 00 38
  can0  7E8   [8]  24 33 30 30 30 00 00 00
  can0  7EA   [8]  24 31 31 30 30 00 00 00
  can0  7E8   [8]  25 00 00 00 00 00 00 00
  can0  7EE   [8]  23 39 38 38 34 34 37 33
  can0  7EE   [8]  24 31 32 30 32 00 00 00
  can0  7EE   [8]  25 00 00 00 00 00 00 00
  can0  7DF   [8]  02 09 06 00 00 00 00 00
  can0  7EE   [8]  10 0B 49 06 02 6C 92 1E
  can0  7E6   [8]  30 00 00 00 00 00 00 00
  can0  7E8   [8]  10 0B 49 06 02 CC 6B BB
  can0  7DF   [8]  01 03 00 00 00 00 00 00
  can0  7E8   [8]  02 43 00 00 00 00 00 00
  can0  7EA   [8]  02 43 00 00 00 00 00 00
  can0  7EE   [8]  02 43 00 00 00 00 00 00
  can0  7DF   [8]  01 07 00 00 00 00 00 00
  can0  7E8   [8]  02 47 00 00 00 00 00 00
  can0  7EA   [8]  02 47 00 00 00 00 00 00
  can0  7EE   [8]  02 47 00 00 00 00 00 00
  can0  7DF   [8]  02 01 01 00 00 00 00 00
  can0  7EE   [8]  06 41 01 00 04 00 00 00
  can0  7E8   [8]  06 41 01 00 07 A1 00 00
  can0  7EA   [8]  06 41 01 00 04 00 00 00
  can0  7DF   [8]  03 02 02 00 00 00 00 00
  can0  7E8   [8]  05 42 02 00 00 00 00 00
  can0  7EA   [8]  05 42 02 00 00 00 00 00
  can0  7EE   [8]  05 42 02 00 00 00 00 00
  can0  7DF   [8]  02 01 01 00 00 00 00 00
  can0  7E8   [8]  06 41 01 00 07 A1 00 00
  can0  7EA   [8]  06 41 01 00 04 00 00 00
  can0  7EE   [8]  06 41 01 00 04 00 00 00
  can0  7DF   [8]  02 01 01 00 00 00 00 00
  can0  7E8   [8]  06 41 01 00 07 A1 00 00
  can0  7EA   [8]  06 41 01 00 04 00 00 00
  can0  7EE   [8]  06 41 01 00 04 00 00 00
